Time Stamp,ID,Extended,Dir,Bus,LEN,D1,D2,D3,D4,D5,D6,D7,D8
-1613983962153940,000001DA,false,Rx,0,8,FF,00,00,00,7F,FE,01,97,
-1613983962153769,00000120,false,Rx,0,4,00,00,01,85,00,00,00,00,
-1613983962153556,0000055A,false,Rx,0,8,00,28,28,FF,55,00,0B,28,
-1613983962143956,000001DA,false,Rx,0,8,FF,00,00,00,7F,FE,02,9D,
-1613983962143786,00000120,false,Rx,0,4,00,00,02,8F,00,00,00,00,
-1613983962133973,000001DA,false,Rx,0,8,FF,40,00,00,7F,FE,03,BA,
-1613983962133802,00000120,false,Rx,0,4,00,00,03,0A,00,00,00,00,
-1613983962123947,000001DA,false,Rx,0,8,02,40,00,00,7F,FE,00,CC,
-1613983962123776,00000120,false,Rx,0,4,00,00,04,9B,00,00,00,00,
-1613983962113878,000001DA,false,Rx,0,8,02,00,00,00,7F,FE,01,EB,
-1613983962113708,00000120,false,Rx,0,4,00,00,05,1E,00,00,00,00,
-1613983962103937,000001DA,false,Rx,0,8,02,00,00,00,7F,FE,02,E1,
-1613983962103767,00000120,false,Rx,0,4,00,00,06,14,00,00,00,00,
-1613983962093869,000001DA,false,Rx,0,8,02,40,00,00,7F,FE,03,C6,
-1613983962093741,00000120,false,Rx,0,4,00,00,07,91,00,00,00,00,
-1613983962083885,000001DA,false,Rx,0,8,02,40,00,00,7F,FE,00,CC,
-1613983962083715,00000120,false,Rx,0,4,00,00,08,B3,00,00,00,00,
-1613983962073945,000001DA,false,Rx,0,8,02,00,00,00,7F,FE,01,EB,
-1613983962073774,00000120,false,Rx,0,4,00,00,09,36,00,00,00,00,
-1613983962063876,000001DA,false,Rx,0,8,02,00,00,00,7F,FE,02,E1,
-1613983962063705,00000120,false,Rx,0,4,00,00,0A,3C,00,00,00,00,
-1613983962053893,000001DA,false,Rx,0,8,02,40,00,00,7F,FE,03,C6,
-1613983962053722,00000120,false,Rx,0,4,00,00,0B,B9,00,00,00,00,
-1613983962053509,0000055A,false,Rx,0,8,00,19,35,FF,68,00,7B,28,
-1613983962043909,000001DA,false,Rx,0,8,02,40,00,00,7F,FE,00,CC,
-1613983962043739,00000120,false,Rx,0,4,00,00,0C,28,00,00,00,00,
-1613983962033883,000001DA,false,Rx,0,8,02,00,00,00,7F,FE,01,EB,
-1613983962033713,00000120,false,Rx,0,4,00,00,0D,AD,00,00,00,00,
-1613983962023900,000001DA,false,Rx,0,8,02,00,00,00,7F,FE,02,E1,
-1613983962023729,00000120,false,Rx,0,4,00,00,0E,A7,00,00,00,00,
-1613983962013916,000001DA,false,Rx,0,8,02,40,00,00,7F,FE,03,C6,
-1613983962013746,00000120,false,Rx,0,4,00,00,0F,22,00,00,00,00,
-1613983962003890,000001DA,false,Rx,0,8,02,40,00,00,7F,FE,00,CC,
-1613983962003720,00000120,false,Rx,0,4,00,00,00,00,00,00,00,00,
-1613983961993907,000001DA,false,Rx,0,8,02,00,00,00,7F,FE,01,EB,
-1613983961993736,00000120,false,Rx,0,4,00,00,01,85,00,00,00,00,
-1613983961983881,000001DA,false,Rx,0,8,02,00,00,00,7F,FE,02,E1,
-1613983961983710,00000120,false,Rx,0,4,00,00,02,8F,00,00,00,00,
-1613983961973898,000001DA,false,Rx,0,8,02,40,00,00,7F,FE,03,C6,
-1613983961973727,00000120,false,Rx,0,4,00,00,03,0A,00,00,00,00,
-1613983961963914,000001DA,false,Rx,0,8,02,40,00,00,7F,FE,00,CC,
-1613983961963744,00000120,false,Rx,0,4,00,00,04,9B,00,00,00,00,
-1613983961953888,000001DA,false,Rx,0,8,02,00,00,00,7F,FE,01,EB,
-1613983961953718,00000120,false,Rx,0,4,00,00,05,1E,00,00,00,00,
-1613983961953504,0000055A,false,Rx,0,8,00,19,35,FF,68,00,7B,28,
-1613983961943905,000001DA,false,Rx,0,8,02,00,00,00,7F,FE,02,E1,
-1613983961943734,00000120,false,Rx,0,4,00,00,06,14,00,00,00,00,
-1613983961933921,000001DA,false,Rx,0,8,02,40,00,00,7F,FE,03,C6,
-1613983961933751,00000120,false,Rx,0,4,00,00,07,91,00,00,00,00,
-1613983961923895,000001DA,false,Rx,0,8,02,40,00,00,7F,FE,00,CC,
-1613983961923725,00000120,false,Rx,0,4,00,00,08,B3,00,00,00,00,
-1613983961913912,000001DA,false,Rx,0,8,02,00,00,00,7F,FE,01,EB,
-1613983961913741,00000120,false,Rx,0,4,00,00,09,36,00,00,00,00,
-1613983961903886,000001DA,false,Rx,0,8,02,00,00,00,7F,FE,02,E1,
-1613983961903715,00000120,false,Rx,0,4,00,00,0A,3C,00,00,00,00,
-1613983961893903,000001DA,false,Rx,0,8,02,40,00,00,7F,FE,03,C6,
-1613983961893732,00000120,false,Rx,0,4,00,00,0B,B9,00,00,00,00,
-1613983961883919,000001DA,false,Rx,0,8,02,40,00,00,7F,FE,00,CC,
-1613983961883749,00000120,false,Rx,0,4,00,00,0C,28,00,00,00,00,
-1613983961873893,000001DA,false,Rx,0,8,02,00,00,00,7F,FE,01,EB,
-1613983961873723,00000120,false,Rx,0,4,00,00,0D,AD,00,00,00,00,
-1613983961863910,000001DA,false,Rx,0,8,02,00,00,00,7F,FE,02,E1,
-1613983961863739,00000120,false,Rx,0,4,00,00,0E,A7,00,00,00,00,
-1613983961853926,000001DA,false,Rx,0,8,02,40,00,00,7F,FE,03,C6,
-1613983961853756,00000120,false,Rx,0,4,00,00,0F,22,00,00,00,00,
-1613983961853500,0000055A,false,Rx,0,8,00,19,36,FF,68,00,7B,28,
-1613983961843900,000001DA,false,Rx,0,8,02,40,00,00,7F,FE,00,CC,
-1613983961843730,00000120,false,Rx,0,4,00,00,00,00,00,00,00,00,
-1613983961833917,000001DA,false,Rx,0,8,02,00,00,00,7F,FE,01,EB,
-1613983961833746,00000120,false,Rx,0,4,00,00,01,85,00,00,00,00,
-1613983961823891,000001DA,false,Rx,0,8,02,00,40,00,7F,FE,02,2C,
-1613983961823720,00000120,false,Rx,0,4,00,00,02,8F,00,00,00,00,
-1613983961813908,000001DA,false,Rx,0,8,02,40,40,00,7F,FE,03,0B,
-1613983961813737,00000120,false,Rx,0,4,00,00,03,0A,00,00,00,00,
-1613983961803967,000001DA,false,Rx,0,8,02,40,40,00,7F,FE,00,01,
-1613983961803796,00000120,false,Rx,0,4,00,00,04,9B,00,00,00,00,
-1613983961793898,000001DA,false,Rx,0,8,02,00,40,00,7F,FE,01,26,
-1613983961793728,00000120,false,Rx,0,4,00,00,05,1E,00,00,00,00,
-1613983961783957,000001DA,false,Rx,0,8,02,00,40,00,7F,FE,02,2C,
-1613983961783787,00000120,false,Rx,0,4,00,00,06,14,00,00,00,00,
-1613983961773931,000001DA,false,Rx,0,8,02,40,40,00,7F,FE,03,0B,
-1613983961773761,00000120,false,Rx,0,4,00,00,07,91,00,00,00,00,
-1613983961763905,000001DA,false,Rx,0,8,02,40,40,00,7F,FE,00,01,
-1613983961763735,00000120,false,Rx,0,4,00,00,08,B3,00,00,00,00,
-1613983961753922,000001DA,false,Rx,0,8,02,00,40,00,7F,FE,01,26,
-1613983961753751,00000120,false,Rx,0,4,00,00,09,36,00,00,00,00,
-1613983961753495,0000055A,false,Rx,0,8,9C,19,35,FF,68,00,7B,28,
-1613983961743981,000001DA,false,Rx,0,8,02,00,40,00,7F,FE,02,2C,
-1613983961743811,00000120,false,Rx,0,4,00,00,0A,3C,00,00,00,00,
-1613983961733913,000001DA,false,Rx,0,8,02,40,40,00,7F,FE,03,0B,
-1613983961733742,00000120,false,Rx,0,4,00,00,0B,B9,00,00,00,00,
-1613983961723929,000001DA,false,Rx,0,8,02,40,40,00,7F,FE,00,01,
-1613983961723759,00000120,false,Rx,0,4,00,00,0C,28,00,00,00,00,
-1613983961713946,000001DA,false,Rx,0,8,02,00,40,00,7F,FE,01,26,
-1613983961713818,00000120,false,Rx,0,4,00,00,0D,AD,00,00,00,00,
-1613983961701872,000001DA,false,Rx,0,8,02,00,40,00,7F,FE,02,2C,
-1613983961701701,00000120,false,Rx,0,4,00,00,0E,A7,00,00,00,00,
-1613983961693766,000001DA,false,Rx,0,8,02,40,40,00,7F,FE,03,0B,
-1613983961693595,00000120,false,Rx,0,4,00,00,0F,22,00,00,00,00,
-1613983961683782,000001DA,false,Rx,0,8,02,40,40,00,7F,FE,00,01,
-1613983961683612,00000120,false,Rx,0,4,00,00,00,00,00,00,00,00,
-1613983961673799,000001DA,false,Rx,0,8,02,00,40,00,7F,FE,01,26,
-1613983961673628,00000120,false,Rx,0,4,00,00,01,85,00,00,00,00,
-1613983961663773,000001DA,false,Rx,0,8,02,00,40,00,7F,FE,02,2C,
-1613983961663602,00000120,false,Rx,0,4,00,00,02,8F,00,00,00,00,
-1613983961653790,000001DA,false,Rx,0,8,02,40,40,00,7F,FE,03,0B,
-1613983961653619,00000120,false,Rx,0,4,00,00,03,0A,00,00,00,00,
-1613983961653406,0000055A,false,Rx,0,8,9C,19,35,FF,68,00,7B,28,
-1613983961643764,000001DA,false,Rx,0,8,02,40,40,00,7F,FE,00,01,
-1613983961643636,00000120,false,Rx,0,4,00,00,04,9B,00,00,00,00,
-1613983961633780,000001DA,false,Rx,0,8,02,00,40,00,7F,FE,01,26,
-1613983961633610,00000120,false,Rx,0,4,00,00,05,1E,00,00,00,00,
-1613983961623797,000001DA,false,Rx,0,8,02,00,40,00,7F,FE,02,2C,
-1613983961623626,00000120,false,Rx,0,4,00,00,06,14,00,00,00,00,
-1613983961613813,000001DA,false,Rx,0,8,02,40,40,00,7F,FE,03,0B,
-1613983961613643,00000120,false,Rx,0,4,00,00,07,91,00,00,00,00,
-1613983961603787,000001DA,false,Rx,0,8,02,40,40,00,7F,FE,00,01,
-1613983961603617,00000120,false,Rx,0,4,00,00,08,B3,00,00,00,00,
-1613983961593804,000001DA,false,Rx,0,8,02,00,40,00,7F,FE,01,26,
-1613983961593633,00000120,false,Rx,0,4,00,00,09,36,00,00,00,00,
-1613983961583778,000001DA,false,Rx,0,8,02,00,40,00,7F,FE,02,2C,
-1613983961583607,00000120,false,Rx,0,4,00,00,0A,3C,00,00,00,00,
-1613983961573795,000001DA,false,Rx,0,8,02,40,40,00,7F,FE,03,0B,
-1613983961573624,00000120,false,Rx,0,4,00,00,0B,B9,00,00,00,00,
-1613983961563769,000001DA,false,Rx,0,8,02,40,40,00,7F,FE,00,01,
-1613983961563598,00000120,false,Rx,0,4,00,00,0C,28,00,00,00,00,
-1613983961553401,000001DA,false,Rx,0,8,02,00,40,00,7F,FE,01,26,
-1613983961553231,00000120,false,Rx,0,4,00,00,0D,AD,00,00,00,00,
-1613983961552975,0000055A,false,Rx,0,8,9C,19,36,FF,68,00,7B,28,
-1613983961552719,18CC078C,true,Rx,0,7,18,CC,07,8C,0A,3F,00,00,
-1613983961543717,000001DA,false,Rx,0,8,02,00,80,00,7F,FE,62,3B,
-1613983961543589,00000120,false,Rx,0,4,00,00,0E,A7,00,00,00,00,
-1613983961533733,000001DA,false,Rx,0,8,02,40,80,00,7F,FE,63,1C,
-1613983961533562,00000120,false,Rx,0,4,00,00,0F,22,00,00,00,00,
-1613983961523750,000001DA,false,Rx,0,8,02,40,80,00,7F,FE,60,16,
-1613983961523536,00000120,false,Rx,0,4,00,00,00,00,00,00,00,00,
-1613983961513425,000001DA,false,Rx,0,8,02,00,80,00,7F,FE,61,31,
-1613983961513254,00000120,false,Rx,0,4,00,00,01,85,00,00,00,00,
-1613983961503740,000001DA,false,Rx,0,8,02,00,80,00,7F,FE,62,3B,
-1613983961503570,00000120,false,Rx,0,4,00,00,02,8F,00,00,00,00,
-1613983961493757,000001DA,false,Rx,0,8,02,40,80,00,7F,FE,63,1C,
-1613983961493586,00000120,false,Rx,0,4,00,00,03,0A,00,00,00,00,
-1613983961483731,000001DA,false,Rx,0,8,02,40,80,00,7F,FE,60,16,
-1613983961483560,00000120,false,Rx,0,4,00,00,04,9B,00,00,00,00,
-1613983961473790,000001DA,false,Rx,0,8,02,00,80,00,7F,FE,61,31,
-1613983961473620,00000120,false,Rx,0,4,00,00,05,1E,00,00,00,00,
-1613983961463722,000001DA,false,Rx,0,8,02,00,80,00,7F,FE,62,3B,
-1613983961463551,00000120,false,Rx,0,4,00,00,06,14,00,00,00,00,
-1613983961453738,000001DA,false,Rx,0,8,02,40,80,00,7F,FE,63,1C,
-1613983961453567,00000120,false,Rx,0,4,00,00,07,91,00,00,00,00,
-1613983961453354,0000055A,false,Rx,0,8,41,19,36,FF,68,00,7B,28,
-1613983961443755,000001DA,false,Rx,0,8,02,40,80,00,7F,FE,60,16,
-1613983961443584,00000120,false,Rx,0,4,00,00,08,B3,00,00,00,00,
-1613983961433729,000001DA,false,Rx,0,8,02,00,80,00,7F,FE,61,31,
-1613983961433558,00000120,false,Rx,0,4,00,00,09,36,00,00,00,00,
-1613983961423745,000001DA,false,Rx,0,8,02,00,80,00,7F,FE,62,3B,
-1613983961423575,00000120,false,Rx,0,4,00,00,0A,3C,00,00,00,00,
-1613983961413762,000001DA,false,Rx,0,8,02,40,80,00,7F,FE,63,1C,
-1613983961413591,00000120,false,Rx,0,4,00,00,0B,B9,00,00,00,00,
-1613983961403736,000001DA,false,Rx,0,8,02,40,80,00,7F,FE,60,16,
-1613983961403565,00000120,false,Rx,0,4,00,00,0C,28,00,00,00,00,
-1613983961393743,000001DA,false,Rx,0,8,02,00,80,00,7F,FE,61,31,
-1613983961393572,00000120,false,Rx,0,4,00,00,0D,AD,00,00,00,00,
-1613983961383717,000001DA,false,Rx,0,8,02,00,80,00,7F,FE,62,3B,
-1613983961383589,00000120,false,Rx,0,4,00,00,0E,A7,00,00,00,00,
-1613983961373733,000001DA,false,Rx,0,8,02,40,80,00,7F,FE,63,1C,
-1613983961373562,00000120,false,Rx,0,4,00,00,0F,22,00,00,00,00,
-1613983961363707,000001DA,false,Rx,0,8,02,40,80,00,7F,FE,60,16,
-1613983961363536,00000120,false,Rx,0,4,00,00,00,00,00,00,00,00,
-1613983961353724,000001DA,false,Rx,0,8,02,00,80,00,7F,FE,61,31,
-1613983961353553,00000120,false,Rx,0,4,00,00,01,85,00,00,00,00,
-1613983961353340,0000055A,false,Rx,0,8,9C,19,36,FF,68,00,7B,28,
-1613983961343740,000001DA,false,Rx,0,8,02,00,80,00,7F,FE,62,3B,
-1613983961343570,00000120,false,Rx,0,4,00,00,02,8F,00,00,00,00,
-1613983961333757,000001DA,false,Rx,0,8,02,40,80,00,7F,FE,63,1C,
-1613983961333586,00000120,false,Rx,0,4,00,00,03,0A,00,00,00,00,
-1613983961323731,000001DA,false,Rx,0,8,02,40,80,00,7F,FE,60,16,
-1613983961323560,00000120,false,Rx,0,4,00,00,04,9B,00,00,00,00,
-1613983961313748,000001DA,false,Rx,0,8,02,00,80,00,7F,FE,61,31,
-1613983961313577,00000120,false,Rx,0,4,00,00,05,1E,00,00,00,00,
-1613983961303722,000001DA,false,Rx,0,8,02,00,80,00,7F,FE,62,3B,
-1613983961303594,00000120,false,Rx,0,4,00,00,06,14,00,00,00,00,
-1613983961293738,000001DA,false,Rx,0,8,02,40,80,00,7F,FE,63,1C,
-1613983961293567,00000120,false,Rx,0,4,00,00,07,91,00,00,00,00,
-1613983961283755,000001DA,false,Rx,0,8,02,40,80,00,7F,FE,60,16,
-1613983961283584,00000120,false,Rx,0,4,00,00,08,B3,00,00,00,00,
-1613983961273729,000001DA,false,Rx,0,8,02,00,80,00,7F,FE,61,31,
-1613983961273558,00000120,false,Rx,0,4,00,00,09,36,00,00,00,00,
-1613983961263745,000001DA,false,Rx,0,8,02,00,80,00,7F,FE,62,3B,
-1613983961263575,00000120,false,Rx,0,4,00,00,0A,3C,00,00,00,00,
-1613983961253762,000001DA,false,Rx,0,8,02,40,80,00,7F,FE,63,1C,
-1613983961253591,00000120,false,Rx,0,4,00,00,0B,B9,00,00,00,00,
-1613983961253335,0000055A,false,Rx,0,8,41,19,36,FF,68,00,7B,28,
-1613983961243736,000001DA,false,Rx,0,8,02,40,80,00,7F,FE,60,16,
-1613983961243565,00000120,false,Rx,0,4,00,00,0C,28,00,00,00,00,
-1613983961233753,000001DA,false,Rx,0,8,02,00,80,00,7F,FE,61,31,
-1613983961233582,00000120,false,Rx,0,4,00,00,0D,AD,00,00,00,00,
-1613983961223769,000001DA,false,Rx,0,8,02,00,80,00,7F,FE,62,3B,
-1613983961223599,00000120,false,Rx,0,4,00,00,0E,A7,00,00,00,00,
-1613983961213743,000001DA,false,Rx,0,8,02,40,80,00,7F,FE,63,1C,
-1613983961213572,00000120,false,Rx,0,4,00,00,0F,22,00,00,00,00,
-1613983961203760,000001DA,false,Rx,0,8,02,40,80,00,7F,FE,60,16,
-1613983961203546,00000120,false,Rx,0,4,00,00,00,00,00,00,00,00,
-1613983961193734,000001DA,false,Rx,0,8,02,00,80,00,7F,FE,61,31,
-1613983961193563,00000120,false,Rx,0,4,00,00,01,85,00,00,00,00,
-1613983961183750,000001DA,false,Rx,0,8,02,00,80,00,7F,FE,62,3B,
-1613983961183580,00000120,false,Rx,0,4,00,00,02,8F,00,00,00,00,
-1613983961173767,000001DA,false,Rx,0,8,02,40,80,00,7F,FE,63,1C,
-1613983961173596,00000120,false,Rx,0,4,00,00,03,0A,00,00,00,00,
-1613983961163741,000001DA,false,Rx,0,8,02,40,80,00,7F,FE,60,16,
-1613983961163570,00000120,false,Rx,0,4,00,00,04,9B,00,00,00,00,
-1613983961153246,000001DA,false,Rx,0,8,02,00,80,00,7F,FE,61,31,
-1613983961153075,00000120,false,Rx,0,4,00,00,05,1E,00,00,00,00,
-1613983961152819,0000055A,false,Rx,0,8,9C,19,36,FF,68,00,7B,28,
-1613983961143774,000001DA,false,Rx,0,8,02,00,80,00,7F,FE,62,3B,
-1613983961143604,00000120,false,Rx,0,4,00,00,06,14,00,00,00,00,
-1613983961133748,000001DA,false,Rx,0,8,02,40,80,00,7F,FE,63,1C,
-1613983961133577,00000120,false,Rx,0,4,00,00,07,91,00,00,00,00,
-1613983961123765,000001DA,false,Rx,0,8,02,40,80,00,7F,FE,60,16,
-1613983961123594,00000120,false,Rx,0,4,00,00,08,B3,00,00,00,00,
-1613983961113739,000001DA,false,Rx,0,8,02,00,80,00,7F,FE,61,31,
-1613983961113568,00000120,false,Rx,0,4,00,00,09,36,00,00,00,00,
-1613983961103755,000001DA,false,Rx,0,8,02,00,80,00,7F,FE,62,3B,
-1613983961103585,00000120,false,Rx,0,4,00,00,0A,3C,00,00,00,00,
-1613983961093772,000001DA,false,Rx,0,8,02,40,80,00,7F,FE,63,1C,
-1613983961093601,00000120,false,Rx,0,4,00,00,0B,B9,00,00,00,00,
-1613983961083746,000001DA,false,Rx,0,8,02,40,80,00,7F,FE,60,16,
-1613983961083575,00000120,false,Rx,0,4,00,00,0C,28,00,00,00,00,
-1613983961073763,000001DA,false,Rx,0,8,02,00,80,00,7F,FE,61,31,
-1613983961073592,00000120,false,Rx,0,4,00,00,0D,AD,00,00,00,00,
-1613983961063737,000001DA,false,Rx,0,8,02,00,80,00,7F,FE,62,3B,
-1613983961063566,00000120,false,Rx,0,4,00,00,0E,A7,00,00,00,00,
-1613983961053753,000001DA,false,Rx,0,8,02,40,80,00,7F,FE,63,1C,
-1613983961053582,00000120,false,Rx,0,4,00,00,0F,22,00,00,00,00,
-1613983961053369,0000055A,false,Rx,0,8,41,19,35,FF,68,00,7B,28,
-1613983961043770,000001DA,false,Rx,0,8,02,40,80,00,7F,FE,60,16,
-1613983961043599,00000120,false,Rx,0,4,00,00,00,00,00,00,00,00,
-1613983961033744,000001DA,false,Rx,0,8,02,00,80,00,7F,FE,61,31,
-1613983961033573,00000120,false,Rx,0,4,00,00,01,85,00,00,00,00,
-1613983961023760,000001DA,false,Rx,0,8,02,00,80,00,7F,FE,62,3B,
-1613983961023590,00000120,false,Rx,0,4,00,00,02,8F,00,00,00,00,
-1613983961013777,000001DA,false,Rx,0,8,02,40,80,00,7F,FE,63,1C,
-1613983961013606,00000120,false,Rx,0,4,00,00,03,0A,00,00,00,00,
-1613983961003751,000001DA,false,Rx,0,8,02,40,80,00,7F,FE,60,16,
-1613983961003580,00000120,false,Rx,0,4,00,00,04,9B,00,00,00,00,
-1613983960993768,000001DA,false,Rx,0,8,02,00,80,00,7F,FE,61,31,
-1613983960993597,00000120,false,Rx,0,4,00,00,05,1E,00,00,00,00,
-1613983960983784,000001DA,false,Rx,0,8,02,00,80,00,7F,FE,62,3B,
-1613983960983614,00000120,false,Rx,0,4,00,00,06,14,00,00,00,00,
-1613983960973758,000001DA,false,Rx,0,8,02,40,80,00,7F,FE,63,1C,
-1613983960973587,00000120,false,Rx,0,4,00,00,07,91,00,00,00,00,
-1613983960963775,000001DA,false,Rx,0,8,02,40,80,00,7F,FE,60,16,
-1613983960963604,00000120,false,Rx,0,4,00,00,08,B3,00,00,00,00,
-1613983960953237,000001DA,false,Rx,0,8,02,00,80,00,7F,FE,61,31,
-1613983960953066,00000120,false,Rx,0,4,00,00,09,36,00,00,00,00,
-1613983960952810,0000055A,false,Rx,0,8,9C,19,36,FF,68,00,7B,28,
-1613983960943808,000001DA,false,Rx,0,8,02,00,80,00,7F,FE,62,3B,
-1613983960943637,00000120,false,Rx,0,4,00,00,0A,3C,00,00,00,00,
-1613983960933782,000001DA,false,Rx,0,8,02,40,80,00,7F,FE,63,1C,
-1613983960933611,00000120,false,Rx,0,4,00,00,0B,B9,00,00,00,00,
-1613983960923799,000001DA,false,Rx,0,8,02,40,80,00,7F,FE,60,16,
-1613983960923628,00000120,false,Rx,0,4,00,00,0C,28,00,00,00,00,
-1613983960913773,000001DA,false,Rx,0,8,02,00,80,00,7F,FE,61,31,
-1613983960913602,00000120,false,Rx,0,4,00,00,0D,AD,00,00,00,00,
-1613983960903789,000001DA,false,Rx,0,8,02,00,80,00,7F,FE,62,3B,
-1613983960903619,00000120,false,Rx,0,4,00,00,0E,A7,00,00,00,00,
-1613983960893763,000001DA,false,Rx,0,8,02,40,80,00,7F,FE,63,1C,
-1613983960893592,00000120,false,Rx,0,4,00,00,0F,22,00,00,00,00,
-1613983960883780,000001DA,false,Rx,0,8,02,40,80,00,7F,FE,60,16,
-1613983960883609,00000120,false,Rx,0,4,00,00,00,00,00,00,00,00,
-1613983960873839,000001DA,false,Rx,0,8,02,00,80,00,7F,FE,61,31,
-1613983960873668,00000120,false,Rx,0,4,00,00,01,85,00,00,00,00,
-1613983960863770,000001DA,false,Rx,0,8,02,00,80,00,7F,FE,62,3B,
-1613983960863600,00000120,false,Rx,0,4,00,00,02,8F,00,00,00,00,
-1613983960853787,000001DA,false,Rx,0,8,02,40,80,00,7F,FE,63,1C,
-1613983960853616,00000120,false,Rx,0,4,00,00,03,0A,00,00,00,00,
-1613983960853360,0000055A,false,Rx,0,8,41,19,36,FF,68,00,7B,28,
-1613983960843804,000001DA,false,Rx,0,8,02,40,80,00,7F,FE,60,16,
-1613983960843676,00000120,false,Rx,0,4,00,00,04,9B,00,00,00,00,
-1613983960833778,000001DA,false,Rx,0,8,02,00,80,00,7F,FE,61,31,
-1613983960833607,00000120,false,Rx,0,4,00,00,05,1E,00,00,00,00,
-1613983960823794,000001DA,false,Rx,0,8,02,00,80,00,7F,FE,62,3B,
-1613983960823624,00000120,false,Rx,0,4,00,00,06,14,00,00,00,00,
-1613983960813811,000001DA,false,Rx,0,8,02,40,80,00,7F,FE,63,1C,
-1613983960813683,00000120,false,Rx,0,4,00,00,07,91,00,00,00,00,
-1613983960803827,000001DA,false,Rx,0,8,02,40,80,00,7F,FE,60,16,
-1613983960803657,00000120,false,Rx,0,4,00,00,08,B3,00,00,00,00,
-1613983960793844,000001DA,false,Rx,0,8,02,00,80,00,7F,FE,61,31,
-1613983960793673,00000120,false,Rx,0,4,00,00,09,36,00,00,00,00,
-1613983960783818,000001DA,false,Rx,0,8,02,00,80,00,7F,FE,62,3B,
-1613983960783647,00000120,false,Rx,0,4,00,00,0A,3C,00,00,00,00,
-1613983960773792,000001DA,false,Rx,0,8,02,40,80,00,7F,FE,63,1C,
-1613983960773621,00000120,false,Rx,0,4,00,00,0B,B9,00,00,00,00,
-1613983960763766,000001DA,false,Rx,0,8,02,40,80,00,7F,FE,60,16,
-1613983960763595,00000120,false,Rx,0,4,00,00,0C,28,00,00,00,00,
-1613983960753783,000001DA,false,Rx,0,8,02,00,80,00,7F,FE,61,31,
-1613983960753612,00000120,false,Rx,0,4,00,00,0D,AD,00,00,00,00,
-1613983960753356,0000055A,false,Rx,0,8,9C,19,36,FF,68,00,7B,28,
-1613983960743799,000001DA,false,Rx,0,8,02,00,80,00,7F,FE,62,3B,
-1613983960743629,00000120,false,Rx,0,4,00,00,0E,A7,00,00,00,00,
-1613983960733858,000001DA,false,Rx,0,8,02,40,80,00,7F,FE,63,1C,
-1613983960733688,00000120,false,Rx,0,4,00,00,0F,22,00,00,00,00,
-1613983960723832,000001DA,false,Rx,0,8,02,40,80,00,7F,FE,60,16,
-1613983960723662,00000120,false,Rx,0,4,00,00,00,00,00,00,00,00,
-1613983960713806,000001DA,false,Rx,0,8,02,00,80,00,7F,FE,61,31,
-1613983960713636,00000120,false,Rx,0,4,00,00,01,85,00,00,00,00,
-1613983960703780,000001DA,false,Rx,0,8,02,00,80,00,7F,FE,62,3B,
-1613983960703610,00000120,false,Rx,0,4,00,00,02,8F,00,00,00,00,
-1613983960693797,000001DA,false,Rx,0,8,02,40,80,00,7F,FE,63,1C,
-1613983960693626,00000120,false,Rx,0,4,00,00,03,0A,00,00,00,00,
-1613983960683771,000001DA,false,Rx,0,8,02,40,80,00,7F,FE,60,16,
-1613983960683600,00000120,false,Rx,0,4,00,00,04,9B,00,00,00,00,
-1613983960673788,000001DA,false,Rx,0,8,02,00,80,00,7F,FE,61,31,
-1613983960673617,00000120,false,Rx,0,4,00,00,05,1E,00,00,00,00,
-1613983960663804,000001DA,false,Rx,0,8,02,00,80,00,7F,FE,62,3B,
-1613983960663634,00000120,false,Rx,0,4,00,00,06,14,00,00,00,00,
-1613983960653778,000001DA,false,Rx,0,8,02,40,80,00,7F,FE,63,1C,
-1613983960653607,00000120,false,Rx,0,4,00,00,07,91,00,00,00,00,
-1613983960653394,0000055A,false,Rx,0,8,41,19,35,FF,68,00,7B,28,
-1613983960643795,000001DA,false,Rx,0,8,02,40,80,00,7F,FE,60,16,
-1613983960643624,00000120,false,Rx,0,4,00,00,08,B3,00,00,00,00,
-1613983960633811,000001DA,false,Rx,0,8,02,00,80,00,7F,FE,61,31,
-1613983960633641,00000120,false,Rx,0,4,00,00,09,36,00,00,00,00,
-1613983960623785,000001DA,false,Rx,0,8,02,00,80,00,7F,FE,62,3B,
-1613983960623615,00000120,false,Rx,0,4,00,00,0A,3C,00,00,00,00,
-1613983960613845,000001DA,false,Rx,0,8,02,40,80,00,7F,FE,63,1C,
-1613983960613674,00000120,false,Rx,0,4,00,00,0B,B9,00,00,00,00,
-1613983960603776,000001DA,false,Rx,0,8,02,40,80,00,7F,FE,60,16,
-1613983960603605,00000120,false,Rx,0,4,00,00,0C,28,00,00,00,00,
-1613983960593793,000001DA,false,Rx,0,8,02,00,80,00,7F,FE,61,31,
-1613983960593622,00000120,false,Rx,0,4,00,00,0D,AD,00,00,00,00,
-1613983960583852,000001DA,false,Rx,0,8,02,00,80,00,7F,FE,62,3B,
-1613983960583681,00000120,false,Rx,0,4,00,00,0E,A7,00,00,00,00,
-1613983960573783,000001DA,false,Rx,0,8,02,40,80,00,7F,FE,63,1C,
-1613983960573612,00000120,false,Rx,0,4,00,00,0F,22,00,00,00,00,
-1613983960563800,000001DA,false,Rx,0,8,02,40,80,00,7F,FE,60,16,
-1613983960563629,00000120,false,Rx,0,4,00,00,00,00,00,00,00,00,
-1613983960553774,000001DA,false,Rx,0,8,02,00,80,00,7F,FE,61,31,
-1613983960553603,00000120,false,Rx,0,4,00,00,01,85,00,00,00,00,
-1613983960553390,0000055A,false,Rx,0,8,9C,19,36,FF,68,00,7B,28,
-1613983960543790,000001DA,false,Rx,0,8,02,00,80,00,7F,FE,62,3B,
-1613983960543620,00000120,false,Rx,0,4,00,00,02,8F,00,00,00,00,
-1613983960533807,000001DA,false,Rx,0,8,02,40,80,00,7F,FE,63,1C,
-1613983960533636,00000120,false,Rx,0,4,00,00,03,0A,00,00,00,00,
-1613983960523866,000001DA,false,Rx,0,8,02,40,80,00,7F,FE,60,16,
-1613983960523696,00000120,false,Rx,0,4,00,00,04,9B,00,00,00,00,
-1613983960513798,000001DA,false,Rx,0,8,02,00,80,00,7F,FE,61,31,
-1613983960513627,00000120,false,Rx,0,4,00,00,05,1E,00,00,00,00,
-1613983960503814,000001DA,false,Rx,0,8,02,00,80,00,7F,FE,62,3B,
-1613983960503644,00000120,false,Rx,0,4,00,00,06,14,00,00,00,00,
-1613983960493788,000001DA,false,Rx,0,8,02,40,80,00,7F,FE,63,1C,
-1613983960493617,00000120,false,Rx,0,4,00,00,07,91,00,00,00,00,
-1613983960483805,000001DA,false,Rx,0,8,02,40,80,00,7F,FE,60,16,
-1613983960483634,00000120,false,Rx,0,4,00,00,08,B3,00,00,00,00,
-1613983960473821,000001DA,false,Rx,0,8,02,00,80,00,7F,FE,61,31,
-1613983960473651,00000120,false,Rx,0,4,00,00,09,36,00,00,00,00,
-1613983960463795,000001DA,false,Rx,0,8,02,00,80,00,7F,FE,62,3B,
-1613983960463625,00000120,false,Rx,0,4,00,00,0A,3C,00,00,00,00,
-1613983960453812,000001DA,false,Rx,0,8,02,40,80,00,7F,FE,63,1C,
-1613983960453641,00000120,false,Rx,0,4,00,00,0B,B9,00,00,00,00,
-1613983960453428,0000055A,false,Rx,0,8,41,19,35,FF,68,00,7B,28,
-1613983960443871,000001DA,false,Rx,0,8,02,40,80,00,7F,FE,60,16,
-1613983960443701,00000120,false,Rx,0,4,00,00,0C,28,00,00,00,00,
-1613983960433803,000001DA,false,Rx,0,8,02,00,80,00,7F,FE,61,31,
-1613983960433632,00000120,false,Rx,0,4,00,00,0D,AD,00,00,00,00,
-1613983960423819,000001DA,false,Rx,0,8,02,00,80,00,7F,FE,62,3B,
-1613983960423649,00000120,false,Rx,0,4,00,00,0E,A7,00,00,00,00,
-1613983960413836,000001DA,false,Rx,0,8,02,40,80,00,7F,FE,63,1C,
-1613983960413665,00000120,false,Rx,0,4,00,00,0F,22,00,00,00,00,
-1613983960403810,000001DA,false,Rx,0,8,02,40,80,00,7F,FE,60,16,
-1613983960403639,00000120,false,Rx,0,4,00,00,00,00,00,00,00,00,
-1613983960393847,000001DA,false,Rx,0,8,02,00,80,00,7F,FE,61,31,
-1613983960393676,00000120,false,Rx,0,4,00,00,01,85,00,00,00,00,
-1613983960383864,000001DA,false,Rx,0,8,02,00,80,00,7F,FE,62,3B,
-1613983960383693,00000120,false,Rx,0,4,00,00,02,8F,00,00,00,00,
-1613983960373795,000001DA,false,Rx,0,8,02,40,80,00,7F,FE,63,1C,
-1613983960373624,00000120,false,Rx,0,4,00,00,03,0A,00,00,00,00,
-1613983960363769,000001DA,false,Rx,0,8,02,40,80,00,7F,FE,60,16,
-1613983960363598,00000120,false,Rx,0,4,00,00,04,9B,00,00,00,00,
-1613983960353786,000001DA,false,Rx,0,8,02,00,80,00,7F,FE,61,31,
-1613983960353615,00000120,false,Rx,0,4,00,00,05,1E,00,00,00,00,
-1613983960353402,0000055A,false,Rx,0,8,9C,19,36,FF,68,00,7B,28,
-1613983960343802,000001DA,false,Rx,0,8,02,00,80,00,7F,FE,62,3B,
-1613983960343632,00000120,false,Rx,0,4,00,00,06,14,00,00,00,00,
-1613983960333861,000001DA,false,Rx,0,8,02,40,80,00,7F,FE,63,1C,
-1613983960333691,00000120,false,Rx,0,4,00,00,07,91,00,00,00,00,
-1613983960323793,000001DA,false,Rx,0,8,02,40,80,00,7F,FE,60,16,
-1613983960323622,00000120,false,Rx,0,4,00,00,08,B3,00,00,00,00,
-1613983960313852,000001DA,false,Rx,0,8,02,00,80,00,7F,FE,61,31,
-1613983960313681,00000120,false,Rx,0,4,00,00,09,36,00,00,00,00,
-1613983960303783,000001DA,false,Rx,0,8,02,00,80,00,7F,FE,62,3B,
-1613983960303613,00000120,false,Rx,0,4,00,00,0A,3C,00,00,00,00,
-1613983960293800,000001DA,false,Rx,0,8,02,40,80,00,7F,FE,63,1C,
-1613983960293629,00000120,false,Rx,0,4,00,00,0B,B9,00,00,00,00,
-1613983960283859,000001DA,false,Rx,0,8,02,40,80,00,7F,FE,60,16,
-1613983960283689,00000120,false,Rx,0,4,00,00,0C,28,00,00,00,00,
-1613983960273833,000001DA,false,Rx,0,8,02,00,80,00,7F,FE,61,31,
-1613983960273663,00000120,false,Rx,0,4,00,00,0D,AD,00,00,00,00,
-1613983960263807,000001DA,false,Rx,0,8,02,00,80,00,7F,FE,62,3B,
-1613983960263637,00000120,false,Rx,0,4,00,00,0E,A7,00,00,00,00,
-1613983960253781,000001DA,false,Rx,0,8,02,40,80,00,7F,FE,63,1C,
-1613983960253610,00000120,false,Rx,0,4,00,00,0F,22,00,00,00,00,
-1613983960253397,0000055A,false,Rx,0,8,41,19,36,FF,68,00,7B,28,
-1613983960243798,000001DA,false,Rx,0,8,02,40,80,00,7F,FE,60,16,
-1613983960243627,00000120,false,Rx,0,4,00,00,00,00,00,00,00,00,
-1613983960233814,000001DA,false,Rx,0,8,02,00,80,00,7F,FE,61,31,
-1613983960233644,00000120,false,Rx,0,4,00,00,01,85,00,00,00,00,
-1613983960223788,000001DA,false,Rx,0,8,02,00,80,00,7F,FE,62,3B,
-1613983960223618,00000120,false,Rx,0,4,00,00,02,8F,00,00,00,00,
-1613983960213805,000001DA,false,Rx,0,8,02,40,80,00,7F,FE,63,1C,
-1613983960213634,00000120,false,Rx,0,4,00,00,03,0A,00,00,00,00,
-1613983960203864,000001DA,false,Rx,0,8,02,40,80,00,7F,FE,60,16,
-1613983960203694,00000120,false,Rx,0,4,00,00,04,9B,00,00,00,00,
-1613983960193838,000001DA,false,Rx,0,8,02,00,80,00,7F,FE,61,31,
-1613983960193710,00000120,false,Rx,0,4,00,00,05,1E,00,00,00,00,
-1613983960183855,000001DA,false,Rx,0,8,02,00,80,00,7F,FE,62,3B,
-1613983960183684,00000120,false,Rx,0,4,00,00,06,14,00,00,00,00,
-1613983960173829,000001DA,false,Rx,0,8,02,40,80,00,7F,FE,63,1C,
-1613983960173658,00000120,false,Rx,0,4,00,00,07,91,00,00,00,00,
-1613983960163803,000001DA,false,Rx,0,8,02,40,80,00,7F,FE,60,16,
-1613983960163632,00000120,false,Rx,0,4,00,00,08,B3,00,00,00,00,
-1613983960153819,000001DA,false,Rx,0,8,02,00,80,00,7F,FE,61,31,
-1613983960153649,00000120,false,Rx,0,4,00,00,09,36,00,00,00,00,
-1613983960153393,0000055A,false,Rx,0,8,9C,19,36,FF,68,00,7B,28,
-1613983960143793,000001DA,false,Rx,0,8,02,00,80,00,7F,FE,62,3B,
-1613983960143623,00000120,false,Rx,0,4,00,00,0A,3C,00,00,00,00,
-1613983960133597,000001DA,false,Rx,0,8,02,40,80,00,7F,FE,63,1C,
-1613983960133426,00000120,false,Rx,0,4,00,00,0B,B9,00,00,00,00,
-1613983960133170,18CC078C,true,Rx,0,7,18,CC,07,8C,D0,00,01,00,
-1613983960123869,000001DA,false,Rx,0,8,02,40,80,00,7F,FE,60,16,
-1613983960123699,00000120,false,Rx,0,4,00,00,0C,28,00,00,00,00,
-1613983960123443,18CC078C,true,Rx,0,7,18,CC,07,8C,0A,2D,00,00,
-1613983960113886,000001DA,false,Rx,0,8,02,00,80,00,7F,FE,61,31,
-1613983960113715,00000120,false,Rx,0,4,00,00,0D,AD,00,00,00,00,
-1613983960113459,18CC078C,true,Rx,0,7,18,CC,07,8C,0A,03,00,00,
-1613983960103860,000001DA,false,Rx,0,8,02,00,80,00,7F,FE,62,3B,
-1613983960103689,00000120,false,Rx,0,4,00,00,0E,A7,00,00,00,00,
-1613983960103433,18CC078C,true,Rx,0,7,18,CC,07,8C,31,97,00,00,
-1613983960093876,000001DA,false,Rx,0,8,02,40,80,00,7F,FE,63,1C,
-1613983960093706,00000120,false,Rx,0,4,00,00,0F,22,00,00,00,00,
-1613983960093450,18CC078C,true,Rx,0,7,18,CC,07,8C,31,8E,00,00,
-1613983960083850,000001DA,false,Rx,0,8,02,40,80,00,7F,FE,60,16,
-1613983960083680,00000120,false,Rx,0,4,00,00,00,00,00,00,00,00,
-1613983960073867,000001DA,false,Rx,0,8,02,00,80,00,7F,FE,61,31,
-1613983960073696,00000120,false,Rx,0,4,00,00,01,85,00,00,00,00,
-1613983960063798,000001DA,false,Rx,0,8,02,00,80,00,7F,FE,62,3B,
-1613983960063628,00000120,false,Rx,0,4,00,00,02,8F,00,00,00,00,
-1613983960053815,000001DA,false,Rx,0,8,02,40,80,00,7F,FE,63,1C,
-1613983960053644,00000120,false,Rx,0,4,00,00,03,0A,00,00,00,00,
-1613983960053431,0000055A,false,Rx,0,8,41,19,36,FF,68,00,7B,28,
-1613983960043789,000001DA,false,Rx,0,8,02,40,80,00,7F,FE,60,16,
-1613983960043618,00000120,false,Rx,0,4,00,00,04,9B,00,00,00,00,
-1613983960033806,000001DA,false,Rx,0,8,02,00,80,00,7F,FE,61,31,
-1613983960033635,00000120,false,Rx,0,4,00,00,05,1E,00,00,00,00,
-1613983960023822,000001DA,false,Rx,0,8,02,00,80,00,7F,FE,62,3B,
-1613983960023652,00000120,false,Rx,0,4,00,00,06,14,00,00,00,00,
-1613983960013796,000001DA,false,Rx,0,8,02,40,80,00,7F,FE,63,1C,
-1613983960013625,00000120,false,Rx,0,4,00,00,07,91,00,00,00,00,
-1613983960003813,000001DA,false,Rx,0,8,02,40,80,00,7F,FE,60,16,
-1613983960003642,00000120,false,Rx,0,4,00,00,08,B3,00,00,00,00,
-1613983959993829,000001DA,false,Rx,0,8,02,00,80,00,7F,FE,61,31,
-1613983959993659,00000120,false,Rx,0,4,00,00,09,36,00,00,00,00,
-1613983959983803,000001DA,false,Rx,0,8,02,00,80,00,7F,FE,62,3B,
-1613983959983633,00000120,false,Rx,0,4,00,00,0A,3C,00,00,00,00,
-1613983959973820,000001DA,false,Rx,0,8,02,40,80,00,7F,FE,63,1C,
-1613983959973649,00000120,false,Rx,0,4,00,00,0B,B9,00,00,00,00,
-1613983959963794,000001DA,false,Rx,0,8,02,40,80,00,7F,FE,60,16,
-1613983959963623,00000120,false,Rx,0,4,00,00,0C,28,00,00,00,00,
-1613983959953811,000001DA,false,Rx,0,8,02,00,80,00,7F,FE,61,31,
-1613983959953640,00000120,false,Rx,0,4,00,00,0D,AD,00,00,00,00,
-1613983959953427,0000055A,false,Rx,0,8,1D,19,36,FF,68,00,7B,28,
-1613983959943827,000001DA,false,Rx,0,8,02,00,80,00,7F,FE,62,3B,
-1613983959943657,00000120,false,Rx,0,4,00,00,0E,A7,00,00,00,00,
-1613983959933801,000001DA,false,Rx,0,8,02,40,80,00,7F,FE,63,1C,
-1613983959933630,00000120,false,Rx,0,4,00,00,0F,22,00,00,00,00,
-1613983959923818,000001DA,false,Rx,0,8,02,40,80,00,7F,FE,60,16,
-1613983959923647,00000120,false,Rx,0,4,00,00,00,00,00,00,00,00,
-1613983959913834,000001DA,false,Rx,0,8,02,00,80,00,7F,FE,61,31,
-1613983959913664,00000120,false,Rx,0,4,00,00,01,85,00,00,00,00,
-1613983959903808,000001DA,false,Rx,0,8,02,00,80,00,7F,FE,62,3B,
-1613983959903638,00000120,false,Rx,0,4,00,00,02,8F,00,00,00,00,
-1613983959893825,000001DA,false,Rx,0,8,02,40,80,00,7F,FE,63,1C,
-1613983959893654,00000120,false,Rx,0,4,00,00,03,0A,00,00,00,00,
-1613983959883799,000001DA,false,Rx,0,8,02,40,80,00,7F,FE,60,16,
-1613983959883628,00000120,false,Rx,0,4,00,00,04,9B,00,00,00,00,
-1613983959873816,000001DA,false,Rx,0,8,02,00,80,00,7F,FE,61,31,
-1613983959873645,00000120,false,Rx,0,4,00,00,05,1E,00,00,00,00,
-1613983959863832,000001DA,false,Rx,0,8,02,00,80,00,7F,FE,62,3B,
-1613983959863662,00000120,false,Rx,0,4,00,00,06,14,00,00,00,00,
-1613983959853806,000001DA,false,Rx,0,8,02,40,80,00,7F,FE,63,1C,
-1613983959853635,00000120,false,Rx,0,4,00,00,07,91,00,00,00,00,
-1613983959853422,0000055A,false,Rx,0,8,1C,19,35,FF,68,00,7B,28,
-1613983959843823,000001DA,false,Rx,0,8,02,40,80,00,7F,FE,60,16,
-1613983959843652,00000120,false,Rx,0,4,00,00,08,B3,00,00,00,00,
-1613983959833839,000001DA,false,Rx,0,8,02,00,80,00,7F,FE,61,31,
-1613983959833669,00000120,false,Rx,0,4,00,00,09,36,00,00,00,00,
-1613983959823813,000001DA,false,Rx,0,8,02,00,80,00,7F,FE,62,3B,
-1613983959823643,00000120,false,Rx,0,4,00,00,0A,3C,00,00,00,00,
-1613983959813830,000001DA,false,Rx,0,8,02,40,80,00,7F,FE,63,1C,
-1613983959813659,00000120,false,Rx,0,4,00,00,0B,B9,00,00,00,00,
-1613983959803804,000001DA,false,Rx,0,8,02,40,80,00,7F,FE,60,16,
-1613983959803633,00000120,false,Rx,0,4,00,00,0C,28,00,00,00,00,
-1613983959793821,000001DA,false,Rx,0,8,02,00,80,00,7F,FE,61,31,
-1613983959793650,00000120,false,Rx,0,4,00,00,0D,AD,00,00,00,00,
-1613983959783837,000001DA,false,Rx,0,8,02,00,80,00,7F,FE,62,3B,
-1613983959783667,00000120,false,Rx,0,4,00,00,0E,A7,00,00,00,00,
-1613983959773811,000001DA,false,Rx,0,8,02,40,80,00,7F,FE,63,1C,
-1613983959773640,00000120,false,Rx,0,4,00,00,0F,22,00,00,00,00,
-1613983959763828,000001DA,false,Rx,0,8,02,40,80,00,7F,FE,60,16,
-1613983959763657,00000120,false,Rx,0,4,00,00,00,00,00,00,00,00,
-1613983959753802,000001DA,false,Rx,0,8,02,00,80,00,7F,FE,61,31,
-1613983959753631,00000120,false,Rx,0,4,00,00,01,85,00,00,00,00,
-1613983959753418,0000055A,false,Rx,0,8,75,19,36,FF,68,00,7B,28,
-1613983959743818,000001DA,false,Rx,0,8,02,00,80,00,7F,FE,62,3B,
-1613983959743648,00000120,false,Rx,0,4,00,00,02,8F,00,00,00,00,
-1613983959733835,000001DA,false,Rx,0,8,02,40,80,00,7F,FE,63,1C,
-1613983959733664,00000120,false,Rx,0,4,00,00,03,0A,00,00,00,00,
-1613983959723809,000001DA,false,Rx,0,8,02,40,80,00,7F,FE,60,16,
-1613983959723681,00000120,false,Rx,0,4,00,00,04,9B,00,00,00,00,
-1613983959713826,000001DA,false,Rx,0,8,02,00,80,00,7F,FE,61,31,
-1613983959713655,00000120,false,Rx,0,4,00,00,05,1E,00,00,00,00,
-1613983959703842,000001DA,false,Rx,0,8,02,00,80,00,7F,FE,62,3B,
-1613983959703672,00000120,false,Rx,0,4,00,00,06,14,00,00,00,00,
-1613983959693816,000001DA,false,Rx,0,8,02,40,80,00,7F,FE,63,1C,
-1613983959693688,00000120,false,Rx,0,4,00,00,07,91,00,00,00,00,
-1613983959683833,000001DA,false,Rx,0,8,02,40,80,00,7F,FE,60,16,
-1613983959683662,00000120,false,Rx,0,4,00,00,08,B3,00,00,00,00,
-1613983959673849,000001DA,false,Rx,0,8,02,00,80,00,7F,FE,61,31,
-1613983959673679,00000120,false,Rx,0,4,00,00,09,36,00,00,00,00,
-1613983959663823,000001DA,false,Rx,0,8,02,00,80,00,7F,FE,62,3B,
-1613983959663653,00000120,false,Rx,0,4,00,00,0A,3C,00,00,00,00,
-1613983959653840,000001DA,false,Rx,0,8,02,40,80,00,7F,FE,63,1C,
-1613983959653669,00000120,false,Rx,0,4,00,00,0B,B9,00,00,00,00,
-1613983959653456,0000055A,false,Rx,0,8,9C,19,35,FF,68,00,7B,28,
-1613983959643814,000001DA,false,Rx,0,8,02,40,80,00,7F,FE,60,16,
-1613983959643686,00000120,false,Rx,0,4,00,00,0C,28,00,00,00,00,
-1613983959633831,000001DA,false,Rx,0,8,02,00,80,00,7F,FE,61,31,
-1613983959633660,00000120,false,Rx,0,4,00,00,0D,AD,00,00,00,00,
-1613983959623847,000001DA,false,Rx,0,8,02,00,80,00,7F,FE,62,3B,
-1613983959623677,00000120,false,Rx,0,4,00,00,0E,A7,00,00,00,00,
-1613983959613864,000001DA,false,Rx,0,8,02,40,80,00,7F,FE,63,1C,
-1613983959613693,00000120,false,Rx,0,4,00,00,0F,22,00,00,00,00,
-1613983959603838,000001DA,false,Rx,0,8,02,40,80,00,7F,FE,60,16,
-1613983959603667,00000120,false,Rx,0,4,00,00,00,00,00,00,00,00,
-1613983959593854,000001DA,false,Rx,0,8,02,00,80,00,7F,FE,61,31,
-1613983959593684,00000120,false,Rx,0,4,00,00,01,85,00,00,00,00,
-1613983959583828,000001DA,false,Rx,0,8,02,00,80,00,7F,FE,62,3B,
-1613983959583658,00000120,false,Rx,0,4,00,00,02,8F,00,00,00,00,
-1613983959573845,000001DA,false,Rx,0,8,02,40,80,00,7F,FE,63,1C,
-1613983959573674,00000120,false,Rx,0,4,00,00,03,0A,00,00,00,00,
-1613983959563819,000001DA,false,Rx,0,8,02,40,80,00,7F,FE,60,16,
-1613983959563648,00000120,false,Rx,0,4,00,00,04,9B,00,00,00,00,
-1613983959553836,000001DA,false,Rx,0,8,02,00,80,00,7F,FE,61,31,
-1613983959553665,00000120,false,Rx,0,4,00,00,05,1E,00,00,00,00,
-1613983959553409,0000055A,false,Rx,0,8,41,19,36,FF,68,00,7B,28,
-1613983959543852,000001DA,false,Rx,0,8,02,00,80,00,7F,FE,62,3B,
-1613983959543682,00000120,false,Rx,0,4,00,00,06,14,00,00,00,00,
-1613983959533314,000001DA,false,Rx,0,8,02,40,80,00,7F,FE,63,1C,
-1613983959533144,00000120,false,Rx,0,4,00,00,07,91,00,00,00,00,
-1613983959523885,000001DA,false,Rx,0,8,02,40,80,00,7F,FE,60,16,
-1613983959523715,00000120,false,Rx,0,4,00,00,08,B3,00,00,00,00,
-1613983959513902,000001DA,false,Rx,0,8,02,00,80,00,7F,FE,61,31,
-1613983959513731,00000120,false,Rx,0,4,00,00,09,36,00,00,00,00,
-1613983959503919,000001DA,false,Rx,0,8,02,00,80,00,7F,FE,62,3B,
-1613983959503748,00000120,false,Rx,0,4,00,00,0A,3C,00,00,00,00,
-1613983959493893,000001DA,false,Rx,0,8,02,40,80,00,7F,FE,63,1C,
-1613983959493765,00000120,false,Rx,0,4,00,00,0B,B9,00,00,00,00,
-1613983959483909,000001DA,false,Rx,0,8,02,40,80,00,7F,FE,60,16,
-1613983959483739,00000120,false,Rx,0,4,00,00,0C,28,00,00,00,00,
-1613983959473926,000001DA,false,Rx,0,8,02,00,80,00,7F,FE,61,31,
-1613983959473755,00000120,false,Rx,0,4,00,00,0D,AD,00,00,00,00,
-1613983959463857,000001DA,false,Rx,0,8,02,00,80,00,7F,FE,62,3B,
-1613983959463687,00000120,false,Rx,0,4,00,00,0E,A7,00,00,00,00,
-1613983959453916,000001DA,false,Rx,0,8,02,40,80,00,7F,FE,63,1C,
-1613983959453746,00000120,false,Rx,0,4,00,00,0F,22,00,00,00,00,
-1613983959453532,0000055A,false,Rx,0,8,1D,19,35,FF,68,00,7B,28,
-1613983959443890,000001DA,false,Rx,0,8,02,40,80,00,7F,FE,60,16,
-1613983959443720,00000120,false,Rx,0,4,00,00,00,00,00,00,00,00,
-1613983959433907,000001DA,false,Rx,0,8,02,00,80,00,7F,FE,61,31,
-1613983959433736,00000120,false,Rx,0,4,00,00,01,85,00,00,00,00,
-1613983959423924,000001DA,false,Rx,0,8,02,00,80,00,7F,FE,62,3B,
-1613983959423753,00000120,false,Rx,0,4,00,00,02,8F,00,00,00,00,
-1613983959413898,000001DA,false,Rx,0,8,02,40,80,00,7F,FE,63,1C,
-1613983959413727,00000120,false,Rx,0,4,00,00,03,0A,00,00,00,00,
-1613983959403914,000001DA,false,Rx,0,8,02,40,80,00,7F,FE,60,16,
-1613983959403744,00000120,false,Rx,0,4,00,00,04,9B,00,00,00,00,
-1613983959393987,000001DA,false,Rx,0,8,02,00,80,00,7F,FE,61,31,
-1613983959393816,00000120,false,Rx,0,4,00,00,05,1E,00,00,00,00,
-1613983959383961,000001DA,false,Rx,0,8,02,00,80,00,7F,FE,62,3B,
-1613983959383790,00000120,false,Rx,0,4,00,00,06,14,00,00,00,00,
-1613983959373935,000001DA,false,Rx,0,8,02,40,80,00,7F,FE,63,1C,
-1613983959373764,00000120,false,Rx,0,4,00,00,07,91,00,00,00,00,
-1613983959363909,000001DA,false,Rx,0,8,02,40,80,00,7F,FE,60,16,
-1613983959363738,00000120,false,Rx,0,4,00,00,08,B3,00,00,00,00,
-1613983959353925,000001DA,false,Rx,0,8,02,00,80,00,7F,FE,61,31,
-1613983959353755,00000120,false,Rx,0,4,00,00,09,36,00,00,00,00,
-1613983959353499,0000055A,false,Rx,0,8,1C,19,36,FF,68,00,7B,28,
-1613983959343985,000001DA,false,Rx,0,8,02,00,80,00,7F,FE,E2,B2,
-1613983959343814,00000120,false,Rx,0,4,00,00,0A,3C,00,00,00,00,
-1613983959334001,000001DA,false,Rx,0,8,02,40,80,00,7F,FE,E3,95,
-1613983959333831,00000120,false,Rx,0,4,00,00,0B,B9,00,00,00,00,
-1613983959323975,000001DA,false,Rx,0,8,02,40,80,00,7F,FE,E0,9F,
-1613983959323805,00000120,false,Rx,0,4,00,00,0C,28,00,00,00,00,
-1613983959313992,000001DA,false,Rx,0,8,02,00,80,00,7F,FE,E1,B8,
-1613983959313821,00000120,false,Rx,0,4,00,00,0D,AD,00,00,00,00,
-1613983959304008,000001DA,false,Rx,0,8,02,00,80,00,7F,FE,E2,B2,
-1613983959303838,00000120,false,Rx,0,4,00,00,0E,A7,00,00,00,00,
-1613983959293982,000001DA,false,Rx,0,8,02,40,80,00,7F,FE,E3,95,
-1613983959293812,00000120,false,Rx,0,4,00,00,0F,22,00,00,00,00,
-1613983959283999,000001DA,false,Rx,0,8,02,40,80,00,7F,FE,E0,9F,
-1613983959283828,00000120,false,Rx,0,4,00,00,00,00,00,00,00,00,
-1613983959273973,000001DA,false,Rx,0,8,02,00,80,00,7F,FE,E1,B8,
-1613983959273802,00000120,false,Rx,0,4,00,00,01,85,00,00,00,00,
-1613983959263990,000001DA,false,Rx,0,8,02,00,80,00,7F,FE,E2,B2,
-1613983959263819,00000120,false,Rx,0,4,00,00,02,8F,00,00,00,00,
-1613983959254006,000001DA,false,Rx,0,8,02,40,80,00,7F,FE,E3,95,
-1613983959253836,00000120,false,Rx,0,4,00,00,03,0A,00,00,00,00,
-1613983959253580,0000055A,false,Rx,0,8,75,19,35,FF,68,00,83,30,
-1613983959243980,000001DA,false,Rx,0,8,02,40,80,00,7F,FE,E0,9F,
-1613983959243810,00000120,false,Rx,0,4,00,00,04,9B,00,00,00,00,
-1613983959233997,000001DA,false,Rx,0,8,02,00,80,00,7F,FE,E1,B8,
-1613983959233826,00000120,false,Rx,0,4,00,00,05,1E,00,00,00,00,
-1613983959224013,000001DA,false,Rx,0,8,02,00,80,00,7F,FE,E2,B2,
-1613983959223843,00000120,false,Rx,0,4,00,00,06,14,00,00,00,00,
-1613983959213987,000001DA,false,Rx,0,8,02,40,80,00,7F,FE,E3,95,
-1613983959213817,00000120,false,Rx,0,4,00,00,07,91,00,00,00,00,
-1613983959204004,000001DA,false,Rx,0,8,02,40,80,00,7F,FE,E0,9F,
-1613983959203833,00000120,false,Rx,0,4,00,00,08,B3,00,00,00,00,
-1613983959193978,000001DA,false,Rx,0,8,02,00,80,00,7F,FE,E1,B8,
-1613983959193850,00000120,false,Rx,0,4,00,00,09,36,00,00,00,00,
-1613983959183995,000001DA,false,Rx,0,8,02,00,80,00,7F,FE,E2,B2,
-1613983959183824,00000120,false,Rx,0,4,00,00,0A,3C,00,00,00,00,
-1613983959174011,000001DA,false,Rx,0,8,02,40,80,00,7F,FE,E3,95,
-1613983959173841,00000120,false,Rx,0,4,00,00,0B,B9,00,00,00,00,
-1613983959163985,000001DA,false,Rx,0,8,02,40,80,00,7F,FE,E0,9F,
-1613983959163815,00000120,false,Rx,0,4,00,00,0C,28,00,00,00,00,
-1613983959154002,000001DA,false,Rx,0,8,02,00,80,00,7F,FE,E1,B8,
-1613983959153831,00000120,false,Rx,0,4,00,00,0D,AD,00,00,00,00,
-1613983959153575,0000055A,false,Rx,0,8,9C,19,36,FF,68,00,83,30,
-1613983959144018,000001DA,false,Rx,0,8,02,00,80,00,7F,FE,E2,B2,
-1613983959143848,00000120,false,Rx,0,4,00,00,0E,A7,00,00,00,00,
-1613983959133992,000001DA,false,Rx,0,8,02,40,80,00,7F,FE,E3,95,
-1613983959133822,00000120,false,Rx,0,4,00,00,0F,22,00,00,00,00,
-1613983959124009,000001DA,false,Rx,0,8,02,40,80,00,7F,FE,E0,9F,
-1613983959123838,00000120,false,Rx,0,4,00,00,00,00,00,00,00,00,
-1613983959114026,000001DA,false,Rx,0,8,02,00,80,00,7F,FE,E1,B8,
-1613983959113812,00000120,false,Rx,0,4,00,00,01,85,00,00,00,00,
-1613983959104000,000001DA,false,Rx,0,8,02,00,80,00,7F,FE,E2,B2,
-1613983959103829,00000120,false,Rx,0,4,00,00,02,8F,00,00,00,00,
-1613983959094016,000001DA,false,Rx,0,8,02,40,80,00,7F,FE,E3,95,
-1613983959093846,00000120,false,Rx,0,4,00,00,03,0A,00,00,00,00,
-1613983959083990,000001DA,false,Rx,0,8,02,40,80,00,7F,FE,E0,9F,
-1613983959083820,00000120,false,Rx,0,4,00,00,04,9B,00,00,00,00,
-1613983959074007,000001DA,false,Rx,0,8,02,00,80,00,7F,FE,E1,B8,
-1613983959073836,00000120,false,Rx,0,4,00,00,05,1E,00,00,00,00,
-1613983959064023,000001DA,false,Rx,0,8,02,00,80,00,7F,FE,E2,B2,
-1613983959063853,00000120,false,Rx,0,4,00,00,06,14,00,00,00,00,
-1613983959053997,000001DA,false,Rx,0,8,02,40,80,00,7F,FE,E3,95,
-1613983959053827,00000120,false,Rx,0,4,00,00,07,91,00,00,00,00,
-1613983959053613,0000055A,false,Rx,0,8,41,19,36,FF,68,00,83,30,
-1613983959044014,000001DA,false,Rx,0,8,02,40,80,00,7F,FE,E0,9F,
-1613983959043843,00000120,false,Rx,0,4,00,00,08,B3,00,00,00,00,
-1613983959033988,000001DA,false,Rx,0,8,02,00,80,00,7F,FE,E1,B8,
-1613983959033860,00000120,false,Rx,0,4,00,00,09,36,00,00,00,00,
-1613983959024005,000001DA,false,Rx,0,8,02,00,80,00,7F,FE,E2,B2,
-1613983959023834,00000120,false,Rx,0,4,00,00,0A,3C,00,00,00,00,
-1613983959014021,000001DA,false,Rx,0,8,02,40,80,00,7F,FE,E3,95,
-1613983959013851,00000120,false,Rx,0,4,00,00,0B,B9,00,00,00,00,
-1613983959003995,000001DA,false,Rx,0,8,02,40,80,00,7F,FE,E0,9F,
-1613983959003825,00000120,false,Rx,0,4,00,00,0C,28,00,00,00,00,
-1613983958994012,000001DA,false,Rx,0,8,02,00,80,00,7F,FE,E1,B8,
-1613983958993841,00000120,false,Rx,0,4,00,00,0D,AD,00,00,00,00,
-1613983958984028,000001DA,false,Rx,0,8,02,00,80,00,7F,FE,E2,B2,
-1613983958983858,00000120,false,Rx,0,4,00,00,0E,A7,00,00,00,00,
-1613983958974002,000001DA,false,Rx,0,8,02,40,80,00,7F,FE,E3,95,
-1613983958973832,00000120,false,Rx,0,4,00,00,0F,22,00,00,00,00,
-1613983958964019,000001DA,false,Rx,0,8,02,40,80,00,7F,FE,E0,9F,
-1613983958963848,00000120,false,Rx,0,4,00,00,00,00,00,00,00,00,
-1613983958953993,000001DA,false,Rx,0,8,02,00,80,00,7F,FE,E1,B8,
-1613983958953822,00000120,false,Rx,0,4,00,00,01,85,00,00,00,00,
-1613983958953609,0000055A,false,Rx,0,8,1D,19,36,FF,68,00,83,30,
-1613983958944010,000001DA,false,Rx,0,8,02,00,80,00,7F,FE,E2,B2,
-1613983958943839,00000120,false,Rx,0,4,00,00,02,8F,00,00,00,00,
-1613983958934026,000001DA,false,Rx,0,8,02,40,80,00,7F,FE,E3,95,
-1613983958933856,00000120,false,Rx,0,4,00,00,03,0A,00,00,00,00,
-1613983958924000,000001DA,false,Rx,0,8,02,40,80,00,7F,FE,E0,9F,
-1613983958923830,00000120,false,Rx,0,4,00,00,04,9B,00,00,00,00,
-1613983958914017,000001DA,false,Rx,0,8,02,00,80,00,7F,FE,E1,B8,
-1613983958913846,00000120,false,Rx,0,4,00,00,05,1E,00,00,00,00,
-1613983958904033,000001DA,false,Rx,0,8,02,00,80,00,7F,FE,E2,B2,
-1613983958903863,00000120,false,Rx,0,4,00,00,06,14,00,00,00,00,
-1613983958894007,000001DA,false,Rx,0,8,02,40,80,00,7F,FE,E3,95,
-1613983958893837,00000120,false,Rx,0,4,00,00,07,91,00,00,00,00,
-1613983958884024,000001DA,false,Rx,0,8,02,40,80,00,7F,FE,E0,9F,
-1613983958883853,00000120,false,Rx,0,4,00,00,08,B3,00,00,00,00,
-1613983958874041,000001DA,false,Rx,0,8,02,00,80,00,7F,FE,E1,B8,
-1613983958873870,00000120,false,Rx,0,4,00,00,09,36,00,00,00,00,
-1613983958864015,000001DA,false,Rx,0,8,02,00,80,00,7F,FE,E2,B2,
-1613983958863844,00000120,false,Rx,0,4,00,00,0A,3C,00,00,00,00,
-1613983958854031,000001DA,false,Rx,0,8,02,40,80,00,7F,FE,E3,95,
-1613983958853861,00000120,false,Rx,0,4,00,00,0B,B9,00,00,00,00,
-1613983958853605,0000055A,false,Rx,0,8,1C,19,36,FF,68,00,83,30,
-1613983958844005,000001DA,false,Rx,0,8,02,40,80,00,7F,FE,E0,9F,
-1613983958843835,00000120,false,Rx,0,4,00,00,0C,28,00,00,00,00,
-1613983958834022,000001DA,false,Rx,0,8,02,00,80,00,7F,FE,E1,B8,
-1613983958833851,00000120,false,Rx,0,4,00,00,0D,AD,00,00,00,00,
-1613983958824038,000001DA,false,Rx,0,8,02,00,80,00,7F,FE,E2,B2,
-1613983958823868,00000120,false,Rx,0,4,00,00,0E,A7,00,00,00,00,
-1613983958814012,000001DA,false,Rx,0,8,02,40,80,00,7F,FE,E3,95,
-1613983958813842,00000120,false,Rx,0,4,00,00,0F,22,00,00,00,00,
-1613983958804029,000001DA,false,Rx,0,8,02,40,80,00,7F,FE,E0,9F,
-1613983958803858,00000120,false,Rx,0,4,00,00,00,00,00,00,00,00,
-1613983958794046,000001DA,false,Rx,0,8,02,00,80,00,7F,FE,E1,B8,
-1613983958793875,00000120,false,Rx,0,4,00,00,01,85,00,00,00,00,
-1613983958784020,000001DA,false,Rx,0,8,02,00,80,00,7F,FE,E2,B2,
-1613983958783849,00000120,false,Rx,0,4,00,00,02,8F,00,00,00,00,
-1613983958774036,000001DA,false,Rx,0,8,02,40,80,00,7F,FE,E3,95,
-1613983958773866,00000120,false,Rx,0,4,00,00,03,0A,00,00,00,00,
-1613983958764010,000001DA,false,Rx,0,8,02,40,80,00,7F,FE,E0,9F,
-1613983958763840,00000120,false,Rx,0,4,00,00,04,9B,00,00,00,00,
-1613983958754027,000001DA,false,Rx,0,8,02,00,80,00,7F,FE,E1,B8,
-1613983958753856,00000120,false,Rx,0,4,00,00,05,1E,00,00,00,00,
-1613983958753643,0000055A,false,Rx,0,8,75,19,36,FF,68,00,83,30,
-1613983958744043,000001DA,false,Rx,0,8,02,00,80,00,7F,FE,E2,B2,
-1613983958743873,00000120,false,Rx,0,4,00,00,06,14,00,00,00,00,
-1613983958734017,000001DA,false,Rx,0,8,02,40,80,00,7F,FE,E3,95,
-1613983958733847,00000120,false,Rx,0,4,00,00,07,91,00,00,00,00,
-1613983958724034,000001DA,false,Rx,0,8,02,40,80,00,7F,FE,E0,9F,
-1613983958723863,00000120,false,Rx,0,4,00,00,08,B3,00,00,00,00,
-1613983958714051,000001DA,false,Rx,0,8,02,00,80,00,7F,FE,E1,B8,
-1613983958713880,00000120,false,Rx,0,4,00,00,09,36,00,00,00,00,
-1613983958704025,000001DA,false,Rx,0,8,02,00,80,00,7F,FE,E2,B2,
-1613983958703854,00000120,false,Rx,0,4,00,00,0A,3C,00,00,00,00,
-1613983958694041,000001DA,false,Rx,0,8,02,40,80,00,7F,FE,E3,95,
-1613983958693871,00000120,false,Rx,0,4,00,00,0B,B9,00,00,00,00,
-1613983958684015,000001DA,false,Rx,0,8,02,40,80,00,7F,FE,E0,9F,
-1613983958683845,00000120,false,Rx,0,4,00,00,0C,28,00,00,00,00,
-1613983958674032,000001DA,false,Rx,0,8,02,00,80,00,7F,FE,E1,B8,
-1613983958673861,00000120,false,Rx,0,4,00,00,0D,AD,00,00,00,00,
-1613983958664048,000001DA,false,Rx,0,8,02,00,80,00,7F,FE,E2,B2,
-1613983958663878,00000120,false,Rx,0,4,00,00,0E,A7,00,00,00,00,
-1613983958654022,000001DA,false,Rx,0,8,02,40,80,00,7F,FE,E3,95,
-1613983958653852,00000120,false,Rx,0,4,00,00,0F,22,00,00,00,00,
-1613983958653638,0000055A,false,Rx,0,8,9C,19,35,FF,68,00,83,30,
-1613983958644039,000001DA,false,Rx,0,8,02,40,80,00,7F,FE,E0,9F,
-1613983958643868,00000120,false,Rx,0,4,00,00,00,00,00,00,00,00,
-1613983958634056,000001DA,false,Rx,0,8,02,00,80,00,7F,FE,E1,B8,
-1613983958633885,00000120,false,Rx,0,4,00,00,01,85,00,00,00,00,
-1613983958624030,000001DA,false,Rx,0,8,02,00,80,00,7F,FE,E2,B2,
-1613983958623859,00000120,false,Rx,0,4,00,00,02,8F,00,00,00,00,
-1613983958614046,000001DA,false,Rx,0,8,02,40,80,00,7F,FE,E3,95,
-1613983958613876,00000120,false,Rx,0,4,00,00,03,0A,00,00,00,00,
-1613983958604020,000001DA,false,Rx,0,8,02,40,80,00,7F,FE,E0,9F,
-1613983958603850,00000120,false,Rx,0,4,00,00,04,9B,00,00,00,00,
-1613983958594037,000001DA,false,Rx,0,8,02,00,80,00,7F,FE,E1,B8,
-1613983958593866,00000120,false,Rx,0,4,00,00,05,1E,00,00,00,00,
